
T0550 000:460 SEGGER J-Link V4.78g Log File (0001ms, 0287ms total)
T0550 000:460 DLL Compiled: Nov  8 2013 18:39:22 (0001ms, 0287ms total)
T0550 000:460 Logging started @ 2014-06-08 18:18 (0001ms, 0287ms total)
T0550 000:461 JLINK_SetWarnOutHandler(...) (0000ms, 0287ms total)
T0550 000:461 JLINK_OpenEx(...)
Firmware: J-Link ARM V8 compiled Nov  8 2013 12:07:30
Hardware: V8.00
S/N: 270676280
Feature(s): RDI,FlashDL,FlashBP,JFlash,GDBFULL  returns O.K. (0277ms, 0564ms total)
T0550 000:738 JLINK_SetErrorOutHandler(...) (0000ms, 0564ms total)
T0550 000:738 JLINK_TIF_Select(JLINKARM_TIF_JTAG)  returns 0x00 (0000ms, 0564ms total)
T0550 000:738 JLINK_SetSpeed(2000) (0001ms, 0565ms total)
T0550 000:739 JLINK_GetHardwareVersion()  returns 0x13880 (0000ms, 0565ms total)
T0550 000:739 JLINK_GetDLLVersion()  returns 47807 (0000ms, 0565ms total)
T0550 000:739 JLINK_GetFirmwareString(...) (0000ms, 0565ms total)
T0550 000:743 JLINK_GetDLLVersion()  returns 47807 (0000ms, 0565ms total)
T0550 000:743 JLINK_GetCompileDateTime() (0000ms, 0565ms total)
T0550 000:746 JLINK_GetFirmwareString(...) (0000ms, 0565ms total)
T0550 000:749 JLINK_GetHardwareVersion()  returns 0x13880 (0000ms, 0565ms total)
T0550 000:765 JLINK_GetIdData(...) >0x2F8 JTAG>TotalIRLen = 9, IRPrint = 0x0011 >0x30 JTAG> >0x210 JTAG> >0x70 JTAG> >0x40 JTAG> >0x40 JTAG> >0x40 JTAG> >0x50 JTAG> >0x80 JTAG> >0x40 JTAG> >0x30 JTAG> >0x40 JTAG> >0x40 JTAG> >0x30 JTAG> >0x40 JTAG> >0x50 JTAG>Found Cortex-M3 r1p1, Little endian. -- CPU_WriteMem(4 bytes @ 0xE0002000) -- CPU_ReadMem(4 bytes @ 0xE000EDF0) -- CPU_ReadMem(4 bytes @ 0xE0002000)FPUnit: 6 code (BP) slots and 2 literal slots -- CPU_ReadMem(4 bytes @ 0xE000EDFC)
 -- CPU_ReadMem(4 bytes @ 0xE0001000) -- CPU_WriteMem(4 bytes @ 0xE0001000) -- CPU_ReadMem(4 bytes @ 0xE00FF010)TPIU fitted. -- CPU_ReadMem(4 bytes @ 0xE00FF014)ETM fitted. -- CPU_ReadMem(4 bytes @ 0xE00FF018) ScanLen=9 NumDevices=2 aId[0]=0x3BA00477 aIrRead[0]=0 aScanLen[0]=0 aScanRead[0]=0 (0034ms, 0599ms total)
T0550 000:799 JLINK_JTAG_GetDeviceID(DeviceIndex = 0)  returns 0x3BA00477 (0000ms, 0599ms total)
T0550 000:799 JLINK_JTAG_GetDeviceInfo(DeviceIndex = 0)  returns 0x00 (0000ms, 0599ms total)
T0550 000:799 JLINK_JTAG_GetDeviceID(DeviceIndex = 1)  returns 0x6414041 (0000ms, 0599ms total)
T0550 000:799 JLINK_JTAG_GetDeviceInfo(DeviceIndex = 1)  returns 0x00 (0000ms, 0599ms total)
T0550 000:799 JLINK_ReadMem (0xE00FF000, 0x0018 Bytes, ...) -- CPU is running -- CPU_ReadMem(24 bytes @ 0xE00FF000) -- Data:  03 F0 F0 FF 03 20 F0 FF 03 30 F0 FF 03 10 F0 FF ...  returns 0x00 (0001ms, 0600ms total)
T0550 000:800 JLINK_ReadMemU32(0xE000ED00, 0x0001 Items, ...) -- CPU is running -- CPU_ReadMem(4 bytes @ 0xE000ED00) -- Data:  31 C2 1F 41  returns 0x01 (0001ms, 0601ms total)
T0550 000:801 JLINK_Halt()  returns 0x00 (0005ms, 0606ms total)
T0550 000:806 JLINK_IsHalted()  returns TRUE (0001ms, 0607ms total)
T0550 000:807 JLINK_ReadMemU32(0xE000EDF0, 0x0001 Items, ...) -- CPU_ReadMem(4 bytes @ 0xE000EDF0) -- Data:  03 00 03 00  returns 0x01 (0001ms, 0607ms total)
T0550 000:808 JLINK_WriteU32(0xE000EDF0, 0xA05F0003) -- CPU_WriteMem(4 bytes @ 0xE000EDF0)  returns 0x00 (0001ms, 0608ms total)
T0550 000:809 JLINK_WriteU32(0xE000EDFC, 0x01000000) -- CPU_WriteMem(4 bytes @ 0xE000EDFC)  returns 0x00 (0001ms, 0609ms total)
T0550 000:810 JLINK_ReadMemU32(0xE0002000, 0x0001 Items, ...) -- CPU_ReadMem(4 bytes @ 0xE0002000) -- Data:  60 02 00 00  returns 0x01 (0001ms, 0610ms total)
T0550 000:811 JLINK_ReadMemU32(0xE0001000, 0x0001 Items, ...) -- CPU_ReadMem(4 bytes @ 0xE0001000) -- Data:  01 00 00 40  returns 0x01 (0001ms, 0611ms total)
T0550 000:814 JLINK_ExecCommand("Device = STM32F103ZE", ...)Device "STM32F103ZE" selected (512 KB flash, 64 KB RAM).  returns 0x00 (0001ms, 0612ms total)
T0550 000:815 JLINK_GetHWStatus(...)  returns 0x00 (0001ms, 0613ms total)
T0550 000:818 JLINK_GetNumBPUnits(Type = 0xFFFFFF00)  returns 0x06 (0000ms, 0613ms total)
T0550 000:818 JLINK_GetNumBPUnits(Type = 0xF0)  returns 0x2000 (0000ms, 0613ms total)
T0550 000:818 JLINK_GetNumWPUnits()  returns 0x04 (0000ms, 0613ms total)
T0550 000:820 JLINK_GetSpeed()  returns 0x7D0 (0000ms, 0613ms total)
T0550 000:821 JLINK_ReadMemU32(0xE000E004, 0x0001 Items, ...) -- CPU_ReadMem(4 bytes @ 0xE000E004) -- Data:  01 00 00 00  returns 0x01 (0001ms, 0614ms total)
T0550 000:822 JLINK_WriteMem(0xE0001000, 0x001C Bytes, ...) -- Data:  01 00 00 00 00 00 00 00 00 00 00 00 00 00 00 00 ... -- CPU_WriteMem(28 bytes @ 0xE0001000)  returns 0x1C (0001ms, 0615ms total)
T0550 000:823 JLINK_ReadMem (0xE0001000, 0x001C Bytes, ...) -- CPU_ReadMem(28 bytes @ 0xE0001000) -- Data:  01 00 00 40 00 00 00 00 00 00 00 00 00 00 00 00 ...  returns 0x00 (0002ms, 0617ms total)
T0550 000:825 JLINK_SetResetType(JLINKARM_RESET_TYPE_NORMAL)  returns JLINKARM_RESET_TYPE_NORMAL (0000ms, 0617ms total)
T0550 000:825 JLINK_Reset() -- CPU_WriteMem(4 bytes @ 0xE000EDF0) -- CPU_WriteMem(4 bytes @ 0xE000EDFC) -- CPU_WriteMem(4 bytes @ 0xE000ED0C) -- CPU_ReadMem(4 bytes @ 0xE000EDF0) -- CPU_ReadMem(4 bytes @ 0xE000EDF0) -- CPU_WriteMem(4 bytes @ 0xE000EDF0) -- CPU_WriteMem(4 bytes @ 0xE000EDFC) -- CPU is running -- CPU_ReadMem(4 bytes @ 0xE000EDF0) >0x80 JTAG> >0x40 JTAG> >0x30 JTAG> >0x40 JTAG> >0x50 JTAG> >0x40 JTAG> -- CPU_WriteMem(4 bytes @ 0xE000EDFC) -- CPU_WriteMem(4 bytes @ 0xE0001028)
 -- CPU_WriteMem(4 bytes @ 0xE0001038) -- CPU_WriteMem(4 bytes @ 0xE0001048) -- CPU_WriteMem(4 bytes @ 0xE0001058) -- CPU_WriteMem(4 bytes @ 0xE0002000) (0031ms, 0648ms total)
T0550 000:856 JLINK_Halt()  returns 0x00 (0000ms, 0648ms total)
T0550 000:856 JLINK_IsHalted()  returns TRUE (0000ms, 0648ms total)
T0550 000:858 JLINK_WriteMem(0x20000000, 0x0164 Bytes, ...) -- Data:  00 BE 0A E0 0D 78 2D 06 68 40 08 24 40 00 00 D3 ... -- CPU_WriteMem(356 bytes @ 0x20000000)  returns 0x164 (0004ms, 0652ms total)
T0550 000:862 JLINK_ReadMem (0x20000000, 0x0164 Bytes, ...) -- CPU_ReadMem(384 bytes @ 0x20000000) -- Updating C cache (384 bytes @ 0x20000000) -- Read from C cache (356 bytes @ 0x20000000) -- Data:  00 BE 0A E0 0D 78 2D 06 68 40 08 24 40 00 00 D3 ...  returns 0x00 (0004ms, 0656ms total)
T0550 000:866 JLINK_WriteReg(R0, 0x08000000)  returns 0x00 (0000ms, 0656ms total)
T0550 000:866 JLINK_WriteReg(R1, 0x007A1200)  returns 0x00 (0000ms, 0656ms total)
T0550 000:866 JLINK_WriteReg(R2, 0x00000001)  returns 0x00 (0000ms, 0656ms total)
T0550 000:866 JLINK_WriteReg(R3, 0x00000000)  returns 0x00 (0000ms, 0656ms total)
T0550 000:866 JLINK_WriteReg(R4, 0x00000000)  returns 0x00 (0000ms, 0656ms total)
T0550 000:866 JLINK_WriteReg(R5, 0x00000000)  returns 0x00 (0000ms, 0656ms total)
T0550 000:866 JLINK_WriteReg(R6, 0x00000000)  returns 0x00 (0000ms, 0656ms total)
T0550 000:866 JLINK_WriteReg(R7, 0x00000000)  returns 0x00 (0000ms, 0656ms total)
T0550 000:866 JLINK_WriteReg(R8, 0x00000000)  returns 0x00 (0000ms, 0656ms total)
T0550 000:866 JLINK_WriteReg(R9, 0x20000160)  returns 0x00 (0000ms, 0656ms total)
T0550 000:866 JLINK_WriteReg(R10, 0x00000000)  returns 0x00 (0000ms, 0656ms total)
T0550 000:866 JLINK_WriteReg(R11, 0x00000000)  returns 0x00 (0000ms, 0656ms total)
T0550 000:866 JLINK_WriteReg(R12, 0x00000000)  returns 0x00 (0000ms, 0656ms total)
T0550 000:866 JLINK_WriteReg(R13 (SP), 0x20000800)  returns 0x00 (0000ms, 0656ms total)
T0550 000:866 JLINK_WriteReg(R14, 0x20000001)  returns 0x00 (0000ms, 0656ms total)
T0550 000:866 JLINK_WriteReg(R15 (PC), 0x20000038)  returns 0x00 (0000ms, 0656ms total)
T0550 000:866 JLINK_WriteReg(XPSR, 0x01000000)  returns 0x00 (0000ms, 0656ms total)
T0550 000:866 JLINK_WriteReg(MSP, 0x20000800)  returns 0x00 (0000ms, 0656ms total)
T0550 000:866 JLINK_WriteReg(PSP, 0x20000800)  returns 0x00 (0000ms, 0656ms total)
T0550 000:866 JLINK_WriteReg(CFBP, 0x00000000)  returns 0x00 (0000ms, 0656ms total)
T0550 000:866 JLINK_SetBPEx(Addr = 0x20000000, Type = 0xFFFFFFF2) -- CPU_ReadMem(2 bytes @ 0x20000000)  returns 0x00000001 (0001ms, 0657ms total)
T0550 000:867 JLINK_Go() -- CPU_WriteMem(2 bytes @ 0x20000000) -- CPU_WriteMem(4 bytes @ 0xE0002008) -- CPU_WriteMem(4 bytes @ 0xE000200C) -- CPU_WriteMem(4 bytes @ 0xE0002010) -- CPU_WriteMem(4 bytes @ 0xE0002014) -- CPU_WriteMem(4 bytes @ 0xE0002018) -- CPU_WriteMem(4 bytes @ 0xE000201C) (0008ms, 0665ms total)
T0550 000:875 JLINK_IsHalted() -- CPU_ReadMem(2 bytes @ 0x20000000)  returns TRUE (0006ms, 0671ms total)
T0550 000:881 JLINK_ReadReg(R15 (PC))  returns 0x20000000 (0000ms, 0665ms total)
T0550 000:881 JLINK_ClrBPEx(BPHandle = 0x00000001)  returns 0x00 (0000ms, 0665ms total)
T0550 000:881 JLINK_ReadReg(R0)  returns 0x00000000 (0001ms, 0666ms total)
T0550 000:882 JLINK_WriteReg(R0, 0x08000000)  returns 0x00 (0000ms, 0666ms total)
T0550 000:882 JLINK_WriteReg(R1, 0x00000800)  returns 0x00 (0000ms, 0666ms total)
T0550 000:882 JLINK_WriteReg(R2, 0x000000FF)  returns 0x00 (0000ms, 0666ms total)
T0550 000:882 JLINK_WriteReg(R3, 0x00000000)  returns 0x00 (0000ms, 0666ms total)
T0550 000:882 JLINK_WriteReg(R4, 0x00000000)  returns 0x00 (0000ms, 0666ms total)
T0550 000:882 JLINK_WriteReg(R5, 0x00000000)  returns 0x00 (0000ms, 0666ms total)
T0550 000:882 JLINK_WriteReg(R6, 0x00000000)  returns 0x00 (0000ms, 0666ms total)
T0550 000:882 JLINK_WriteReg(R7, 0x00000000)  returns 0x00 (0000ms, 0666ms total)
T0550 000:882 JLINK_WriteReg(R8, 0x00000000)  returns 0x00 (0000ms, 0666ms total)
T0550 000:882 JLINK_WriteReg(R9, 0x20000160)  returns 0x00 (0000ms, 0666ms total)
T0550 000:882 JLINK_WriteReg(R10, 0x00000000)  returns 0x00 (0000ms, 0666ms total)
T0550 000:882 JLINK_WriteReg(R11, 0x00000000)  returns 0x00 (0000ms, 0666ms total)
T0550 000:882 JLINK_WriteReg(R12, 0x00000000)  returns 0x00 (0000ms, 0666ms total)
T0550 000:882 JLINK_WriteReg(R13 (SP), 0x20000800)  returns 0x00 (0000ms, 0666ms total)
T0550 000:882 JLINK_WriteReg(R14, 0x20000001)  returns 0x00 (0001ms, 0667ms total)
T0550 000:883 JLINK_WriteReg(R15 (PC), 0x20000020)  returns 0x00 (0000ms, 0667ms total)
T0550 000:883 JLINK_WriteReg(XPSR, 0x01000000)  returns 0x00 (0000ms, 0667ms total)
T0550 000:883 JLINK_WriteReg(MSP, 0x20000800)  returns 0x00 (0000ms, 0667ms total)
T0550 000:883 JLINK_WriteReg(PSP, 0x20000800)  returns 0x00 (0000ms, 0667ms total)
T0550 000:883 JLINK_WriteReg(CFBP, 0x00000000)  returns 0x00 (0000ms, 0667ms total)
T0550 000:883 JLINK_SetBPEx(Addr = 0x20000000, Type = 0xFFFFFFF2)  returns 0x00000002 (0000ms, 0667ms total)
T0550 000:883 JLINK_Go() (0002ms, 0669ms total)
T0550 000:885 JLINK_IsHalted() -- CPU_ReadMem(2 bytes @ 0x20000000)  returns TRUE (0006ms, 0675ms total)
T0550 000:891 JLINK_ReadReg(R15 (PC))  returns 0x20000000 (0000ms, 0669ms total)
T0550 000:891 JLINK_ClrBPEx(BPHandle = 0x00000002)  returns 0x00 (0000ms, 0669ms total)
T0550 000:891 JLINK_ReadReg(R0)  returns 0x00000001 (0000ms, 0669ms total)
T0550 000:891 JLINK_WriteReg(R0, 0x08000000)  returns 0x00 (0000ms, 0669ms total)
T0550 000:891 JLINK_WriteReg(R1, 0x00000800)  returns 0x00 (0000ms, 0669ms total)
T0550 000:891 JLINK_WriteReg(R2, 0x000000FF)  returns 0x00 (0000ms, 0669ms total)
T0550 000:891 JLINK_WriteReg(R3, 0x00000000)  returns 0x00 (0000ms, 0669ms total)
T0550 000:891 JLINK_WriteReg(R4, 0x00000000)  returns 0x00 (0000ms, 0669ms total)
T0550 000:891 JLINK_WriteReg(R5, 0x00000000)  returns 0x00 (0000ms, 0669ms total)
T0550 000:891 JLINK_WriteReg(R6, 0x00000000)  returns 0x00 (0000ms, 0669ms total)
T0550 000:891 JLINK_WriteReg(R7, 0x00000000)  returns 0x00 (0000ms, 0669ms total)
T0550 000:891 JLINK_WriteReg(R8, 0x00000000)  returns 0x00 (0000ms, 0669ms total)
T0550 000:891 JLINK_WriteReg(R9, 0x20000160)  returns 0x00 (0000ms, 0669ms total)
T0550 000:891 JLINK_WriteReg(R10, 0x00000000)  returns 0x00 (0000ms, 0669ms total)
T0550 000:891 JLINK_WriteReg(R11, 0x00000000)  returns 0x00 (0000ms, 0669ms total)
T0550 000:891 JLINK_WriteReg(R12, 0x00000000)  returns 0x00 (0000ms, 0669ms total)
T0550 000:891 JLINK_WriteReg(R13 (SP), 0x20000800)  returns 0x00 (0000ms, 0669ms total)
T0550 000:891 JLINK_WriteReg(R14, 0x20000001)  returns 0x00 (0000ms, 0669ms total)
T0550 000:891 JLINK_WriteReg(R15 (PC), 0x200000B6)  returns 0x00 (0001ms, 0670ms total)
T0550 000:892 JLINK_WriteReg(XPSR, 0x01000000)  returns 0x00 (0000ms, 0670ms total)
T0550 000:892 JLINK_WriteReg(MSP, 0x20000800)  returns 0x00 (0000ms, 0670ms total)
T0550 000:892 JLINK_WriteReg(PSP, 0x20000800)  returns 0x00 (0000ms, 0670ms total)
T0550 000:892 JLINK_WriteReg(CFBP, 0x00000000)  returns 0x00 (0000ms, 0670ms total)
T0550 000:892 JLINK_SetBPEx(Addr = 0x20000000, Type = 0xFFFFFFF2)  returns 0x00000003 (0000ms, 0670ms total)
T0550 000:892 JLINK_Go() (0002ms, 0672ms total)
T0550 000:894 JLINK_IsHalted()  returns FALSE (0000ms, 0672ms total)
T0550 000:944 JLINK_IsHalted() -- CPU_ReadMem(2 bytes @ 0x20000000)  returns TRUE (0006ms, 0678ms total)
T0550 000:950 JLINK_ReadReg(R15 (PC))  returns 0x20000000 (0000ms, 0672ms total)
T0550 000:950 JLINK_ClrBPEx(BPHandle = 0x00000003)  returns 0x00 (0000ms, 0672ms total)
T0550 000:950 JLINK_ReadReg(R0)  returns 0x00000000 (0000ms, 0672ms total)
T0550 000:952 JLINK_WriteReg(R0, 0x08000800)  returns 0x00 (0000ms, 0672ms total)
T0550 000:952 JLINK_WriteReg(R1, 0x00000800)  returns 0x00 (0000ms, 0672ms total)
T0550 000:952 JLINK_WriteReg(R2, 0x000000FF)  returns 0x00 (0000ms, 0672ms total)
T0550 000:952 JLINK_WriteReg(R3, 0x00000000)  returns 0x00 (0000ms, 0672ms total)
T0550 000:952 JLINK_WriteReg(R4, 0x00000000)  returns 0x00 (0000ms, 0672ms total)
T0550 000:952 JLINK_WriteReg(R5, 0x00000000)  returns 0x00 (0001ms, 0673ms total)
T0550 000:953 JLINK_WriteReg(R6, 0x00000000)  returns 0x00 (0000ms, 0673ms total)
T0550 000:953 JLINK_WriteReg(R7, 0x00000000)  returns 0x00 (0000ms, 0673ms total)
T0550 000:953 JLINK_WriteReg(R8, 0x00000000)  returns 0x00 (0000ms, 0673ms total)
T0550 000:953 JLINK_WriteReg(R9, 0x20000160)  returns 0x00 (0000ms, 0673ms total)
T0550 000:953 JLINK_WriteReg(R10, 0x00000000)  returns 0x00 (0000ms, 0673ms total)
T0550 000:953 JLINK_WriteReg(R11, 0x00000000)  returns 0x00 (0000ms, 0673ms total)
T0550 000:953 JLINK_WriteReg(R12, 0x00000000)  returns 0x00 (0000ms, 0673ms total)
T0550 000:953 JLINK_WriteReg(R13 (SP), 0x20000800)  returns 0x00 (0000ms, 0673ms total)
T0550 000:953 JLINK_WriteReg(R14, 0x20000001)  returns 0x00 (0000ms, 0673ms total)
T0550 000:953 JLINK_WriteReg(R15 (PC), 0x20000020)  returns 0x00 (0001ms, 0674ms total)
T0550 000:954 JLINK_WriteReg(XPSR, 0x01000000)  returns 0x00 (0000ms, 0674ms total)
T0550 000:954 JLINK_WriteReg(MSP, 0x20000800)  returns 0x00 (0000ms, 0674ms total)
T0550 000:954 JLINK_WriteReg(PSP, 0x20000800)  returns 0x00 (0000ms, 0674ms total)
T0550 000:954 JLINK_WriteReg(CFBP, 0x00000000)  returns 0x00 (0000ms, 0674ms total)
T0550 000:954 JLINK_SetBPEx(Addr = 0x20000000, Type = 0xFFFFFFF2)  returns 0x00000004 (0000ms, 0674ms total)
T0550 000:954 JLINK_Go() (0003ms, 0677ms total)
T0550 000:957 JLINK_IsHalted() -- CPU_ReadMem(2 bytes @ 0x20000000)  returns TRUE (0006ms, 0683ms total)
T0550 000:963 JLINK_ReadReg(R15 (PC))  returns 0x20000000 (0000ms, 0677ms total)
T0550 000:963 JLINK_ClrBPEx(BPHandle = 0x00000004)  returns 0x00 (0000ms, 0677ms total)
T0550 000:963 JLINK_ReadReg(R0)  returns 0x00000001 (0000ms, 0677ms total)
T0550 000:963 JLINK_WriteReg(R0, 0x08000800)  returns 0x00 (0000ms, 0677ms total)
T0550 000:963 JLINK_WriteReg(R1, 0x00000800)  returns 0x00 (0000ms, 0677ms total)
T0550 000:963 JLINK_WriteReg(R2, 0x000000FF)  returns 0x00 (0001ms, 0678ms total)
T0550 000:964 JLINK_WriteReg(R3, 0x00000000)  returns 0x00 (0000ms, 0678ms total)
T0550 000:964 JLINK_WriteReg(R4, 0x00000000)  returns 0x00 (0000ms, 0678ms total)
T0550 000:964 JLINK_WriteReg(R5, 0x00000000)  returns 0x00 (0000ms, 0678ms total)
T0550 000:964 JLINK_WriteReg(R6, 0x00000000)  returns 0x00 (0000ms, 0678ms total)
T0550 000:964 JLINK_WriteReg(R7, 0x00000000)  returns 0x00 (0000ms, 0678ms total)
T0550 000:964 JLINK_WriteReg(R8, 0x00000000)  returns 0x00 (0000ms, 0678ms total)
T0550 000:964 JLINK_WriteReg(R9, 0x20000160)  returns 0x00 (0000ms, 0678ms total)
T0550 000:964 JLINK_WriteReg(R10, 0x00000000)  returns 0x00 (0000ms, 0678ms total)
T0550 000:964 JLINK_WriteReg(R11, 0x00000000)  returns 0x00 (0000ms, 0678ms total)
T0550 000:964 JLINK_WriteReg(R12, 0x00000000)  returns 0x00 (0001ms, 0679ms total)
T0550 000:965 JLINK_WriteReg(R13 (SP), 0x20000800)  returns 0x00 (0000ms, 0679ms total)
T0550 000:965 JLINK_WriteReg(R14, 0x20000001)  returns 0x00 (0000ms, 0679ms total)
T0550 000:965 JLINK_WriteReg(R15 (PC), 0x200000B6)  returns 0x00 (0000ms, 0679ms total)
T0550 000:965 JLINK_WriteReg(XPSR, 0x01000000)  returns 0x00 (0000ms, 0679ms total)
T0550 000:965 JLINK_WriteReg(MSP, 0x20000800)  returns 0x00 (0000ms, 0679ms total)
T0550 000:965 JLINK_WriteReg(PSP, 0x20000800)  returns 0x00 (0000ms, 0679ms total)
T0550 000:965 JLINK_WriteReg(CFBP, 0x00000000)  returns 0x00 (0000ms, 0679ms total)
T0550 000:965 JLINK_SetBPEx(Addr = 0x20000000, Type = 0xFFFFFFF2)  returns 0x00000005 (0000ms, 0679ms total)
T0550 000:965 JLINK_Go() (0003ms, 0682ms total)
T0550 000:968 JLINK_IsHalted()  returns FALSE (0001ms, 0683ms total)
T0550 001:019 JLINK_IsHalted() -- CPU_ReadMem(2 bytes @ 0x20000000)  returns TRUE (0007ms, 0689ms total)
T0550 001:026 JLINK_ReadReg(R15 (PC))  returns 0x20000000 (0000ms, 0682ms total)
T0550 001:026 JLINK_ClrBPEx(BPHandle = 0x00000005)  returns 0x00 (0000ms, 0682ms total)
T0550 001:026 JLINK_ReadReg(R0)  returns 0x00000000 (0000ms, 0682ms total)
T0550 001:028 JLINK_WriteReg(R0, 0x08001000)  returns 0x00 (0000ms, 0683ms total)
T0550 001:028 JLINK_WriteReg(R1, 0x00000800)  returns 0x00 (0000ms, 0683ms total)
T0550 001:028 JLINK_WriteReg(R2, 0x000000FF)  returns 0x00 (0000ms, 0683ms total)
T0550 001:028 JLINK_WriteReg(R3, 0x00000000)  returns 0x00 (0000ms, 0683ms total)
T0550 001:028 JLINK_WriteReg(R4, 0x00000000)  returns 0x00 (0000ms, 0683ms total)
T0550 001:028 JLINK_WriteReg(R5, 0x00000000)  returns 0x00 (0000ms, 0683ms total)
T0550 001:028 JLINK_WriteReg(R6, 0x00000000)  returns 0x00 (0001ms, 0684ms total)
T0550 001:029 JLINK_WriteReg(R7, 0x00000000)  returns 0x00 (0000ms, 0684ms total)
T0550 001:029 JLINK_WriteReg(R8, 0x00000000)  returns 0x00 (0000ms, 0684ms total)
T0550 001:029 JLINK_WriteReg(R9, 0x20000160)  returns 0x00 (0000ms, 0684ms total)
T0550 001:029 JLINK_WriteReg(R10, 0x00000000)  returns 0x00 (0000ms, 0684ms total)
T0550 001:029 JLINK_WriteReg(R11, 0x00000000)  returns 0x00 (0000ms, 0684ms total)
T0550 001:029 JLINK_WriteReg(R12, 0x00000000)  returns 0x00 (0000ms, 0684ms total)
T0550 001:029 JLINK_WriteReg(R13 (SP), 0x20000800)  returns 0x00 (0000ms, 0684ms total)
T0550 001:029 JLINK_WriteReg(R14, 0x20000001)  returns 0x00 (0000ms, 0684ms total)
T0550 001:029 JLINK_WriteReg(R15 (PC), 0x20000020)  returns 0x00 (0000ms, 0684ms total)
T0550 001:029 JLINK_WriteReg(XPSR, 0x01000000)  returns 0x00 (0001ms, 0685ms total)
T0550 001:030 JLINK_WriteReg(MSP, 0x20000800)  returns 0x00 (0000ms, 0685ms total)
T0550 001:030 JLINK_WriteReg(PSP, 0x20000800)  returns 0x00 (0000ms, 0685ms total)
T0550 001:030 JLINK_WriteReg(CFBP, 0x00000000)  returns 0x00 (0000ms, 0685ms total)
T0550 001:030 JLINK_SetBPEx(Addr = 0x20000000, Type = 0xFFFFFFF2)  returns 0x00000006 (0000ms, 0685ms total)
T0550 001:030 JLINK_Go() (0003ms, 0688ms total)
T0550 001:033 JLINK_IsHalted() -- CPU_ReadMem(2 bytes @ 0x20000000)  returns TRUE (0006ms, 0694ms total)
T0550 001:039 JLINK_ReadReg(R15 (PC))  returns 0x20000000 (0000ms, 0688ms total)
T0550 001:039 JLINK_ClrBPEx(BPHandle = 0x00000006)  returns 0x00 (0000ms, 0688ms total)
T0550 001:039 JLINK_ReadReg(R0)  returns 0x00000001 (0000ms, 0688ms total)
T0550 001:039 JLINK_WriteReg(R0, 0x08001000)  returns 0x00 (0000ms, 0688ms total)
T0550 001:039 JLINK_WriteReg(R1, 0x00000800)  returns 0x00 (0000ms, 0688ms total)
T0550 001:039 JLINK_WriteReg(R2, 0x000000FF)  returns 0x00 (0001ms, 0689ms total)
T0550 001:040 JLINK_WriteReg(R3, 0x00000000)  returns 0x00 (0000ms, 0689ms total)
T0550 001:040 JLINK_WriteReg(R4, 0x00000000)  returns 0x00 (0000ms, 0689ms total)
T0550 001:040 JLINK_WriteReg(R5, 0x00000000)  returns 0x00 (0000ms, 0689ms total)
T0550 001:040 JLINK_WriteReg(R6, 0x00000000)  returns 0x00 (0000ms, 0689ms total)
T0550 001:040 JLINK_WriteReg(R7, 0x00000000)  returns 0x00 (0000ms, 0689ms total)
T0550 001:040 JLINK_WriteReg(R8, 0x00000000)  returns 0x00 (0000ms, 0689ms total)
T0550 001:040 JLINK_WriteReg(R9, 0x20000160)  returns 0x00 (0000ms, 0689ms total)
T0550 001:040 JLINK_WriteReg(R10, 0x00000000)  returns 0x00 (0000ms, 0689ms total)
T0550 001:040 JLINK_WriteReg(R11, 0x00000000)  returns 0x00 (0000ms, 0689ms total)
T0550 001:041 JLINK_WriteReg(R12, 0x00000000)  returns 0x00 (0000ms, 0689ms total)
T0550 001:041 JLINK_WriteReg(R13 (SP), 0x20000800)  returns 0x00 (0000ms, 0689ms total)
T0550 001:041 JLINK_WriteReg(R14, 0x20000001)  returns 0x00 (0000ms, 0689ms total)
T0550 001:041 JLINK_WriteReg(R15 (PC), 0x200000B6)  returns 0x00 (0000ms, 0689ms total)
T0550 001:041 JLINK_WriteReg(XPSR, 0x01000000)  returns 0x00 (0000ms, 0689ms total)
T0550 001:041 JLINK_WriteReg(MSP, 0x20000800)  returns 0x00 (0000ms, 0689ms total)
T0550 001:041 JLINK_WriteReg(PSP, 0x20000800)  returns 0x00 (0000ms, 0689ms total)
T0550 001:041 JLINK_WriteReg(CFBP, 0x00000000)  returns 0x00 (0000ms, 0689ms total)
T0550 001:041 JLINK_SetBPEx(Addr = 0x20000000, Type = 0xFFFFFFF2)  returns 0x00000007 (0000ms, 0689ms total)
T0550 001:041 JLINK_Go() (0003ms, 0692ms total)
T0550 001:044 JLINK_IsHalted()  returns FALSE (0001ms, 0693ms total)
T0550 001:095 JLINK_IsHalted() -- CPU_ReadMem(2 bytes @ 0x20000000)  returns TRUE (0006ms, 0698ms total)
T0550 001:101 JLINK_ReadReg(R15 (PC))  returns 0x20000000 (0000ms, 0692ms total)
T0550 001:101 JLINK_ClrBPEx(BPHandle = 0x00000007)  returns 0x00 (0000ms, 0692ms total)
T0550 001:101 JLINK_ReadReg(R0)  returns 0x00000000 (0000ms, 0692ms total)
T0550 001:103 JLINK_WriteReg(R0, 0x08001800)  returns 0x00 (0000ms, 0692ms total)
T0550 001:103 JLINK_WriteReg(R1, 0x00000800)  returns 0x00 (0000ms, 0692ms total)
T0550 001:103 JLINK_WriteReg(R2, 0x000000FF)  returns 0x00 (0000ms, 0692ms total)
T0550 001:103 JLINK_WriteReg(R3, 0x00000000)  returns 0x00 (0000ms, 0692ms total)
T0550 001:103 JLINK_WriteReg(R4, 0x00000000)  returns 0x00 (0000ms, 0692ms total)
T0550 001:103 JLINK_WriteReg(R5, 0x00000000)  returns 0x00 (0000ms, 0692ms total)
T0550 001:103 JLINK_WriteReg(R6, 0x00000000)  returns 0x00 (0000ms, 0692ms total)
T0550 001:103 JLINK_WriteReg(R7, 0x00000000)  returns 0x00 (0001ms, 0693ms total)
T0550 001:104 JLINK_WriteReg(R8, 0x00000000)  returns 0x00 (0000ms, 0693ms total)
T0550 001:104 JLINK_WriteReg(R9, 0x20000160)  returns 0x00 (0000ms, 0693ms total)
T0550 001:104 JLINK_WriteReg(R10, 0x00000000)  returns 0x00 (0000ms, 0693ms total)
T0550 001:104 JLINK_WriteReg(R11, 0x00000000)  returns 0x00 (0000ms, 0693ms total)
T0550 001:104 JLINK_WriteReg(R12, 0x00000000)  returns 0x00 (0000ms, 0693ms total)
T0550 001:104 JLINK_WriteReg(R13 (SP), 0x20000800)  returns 0x00 (0000ms, 0693ms total)
T0550 001:104 JLINK_WriteReg(R14, 0x20000001)  returns 0x00 (0000ms, 0693ms total)
T0550 001:104 JLINK_WriteReg(R15 (PC), 0x20000020)  returns 0x00 (0000ms, 0693ms total)
T0550 001:104 JLINK_WriteReg(XPSR, 0x01000000)  returns 0x00 (0000ms, 0693ms total)
T0550 001:104 JLINK_WriteReg(MSP, 0x20000800)  returns 0x00 (0001ms, 0694ms total)
T0550 001:105 JLINK_WriteReg(PSP, 0x20000800)  returns 0x00 (0000ms, 0694ms total)
T0550 001:105 JLINK_WriteReg(CFBP, 0x00000000)  returns 0x00 (0000ms, 0694ms total)
T0550 001:105 JLINK_SetBPEx(Addr = 0x20000000, Type = 0xFFFFFFF2)  returns 0x00000008 (0000ms, 0694ms total)
T0550 001:105 JLINK_Go() (0003ms, 0697ms total)
T0550 001:108 JLINK_IsHalted() -- CPU_ReadMem(2 bytes @ 0x20000000)  returns TRUE (0006ms, 0703ms total)
T0550 001:114 JLINK_ReadReg(R15 (PC))  returns 0x20000000 (0000ms, 0697ms total)
T0550 001:115 JLINK_ClrBPEx(BPHandle = 0x00000008)  returns 0x00 (0000ms, 0698ms total)
T0550 001:115 JLINK_ReadReg(R0)  returns 0x00000001 (0000ms, 0698ms total)
T0550 001:115 JLINK_WriteReg(R0, 0x08001800)  returns 0x00 (0000ms, 0698ms total)
T0550 001:115 JLINK_WriteReg(R1, 0x00000800)  returns 0x00 (0000ms, 0698ms total)
T0550 001:115 JLINK_WriteReg(R2, 0x000000FF)  returns 0x00 (0000ms, 0698ms total)
T0550 001:115 JLINK_WriteReg(R3, 0x00000000)  returns 0x00 (0000ms, 0698ms total)
T0550 001:116 JLINK_WriteReg(R4, 0x00000000)  returns 0x00 (0000ms, 0699ms total)
T0550 001:116 JLINK_WriteReg(R5, 0x00000000)  returns 0x00 (0000ms, 0699ms total)
T0550 001:116 JLINK_WriteReg(R6, 0x00000000)  returns 0x00 (0000ms, 0699ms total)
T0550 001:116 JLINK_WriteReg(R7, 0x00000000)  returns 0x00 (0000ms, 0699ms total)
T0550 001:116 JLINK_WriteReg(R8, 0x00000000)  returns 0x00 (0000ms, 0699ms total)
T0550 001:116 JLINK_WriteReg(R9, 0x20000160)  returns 0x00 (0000ms, 0699ms total)
T0550 001:116 JLINK_WriteReg(R10, 0x00000000)  returns 0x00 (0000ms, 0699ms total)
T0550 001:116 JLINK_WriteReg(R11, 0x00000000)  returns 0x00 (0000ms, 0699ms total)
T0550 001:116 JLINK_WriteReg(R12, 0x00000000)  returns 0x00 (0000ms, 0699ms total)
T0550 001:116 JLINK_WriteReg(R13 (SP), 0x20000800)  returns 0x00 (0000ms, 0699ms total)
T0550 001:117 JLINK_WriteReg(R14, 0x20000001)  returns 0x00 (0000ms, 0699ms total)
T0550 001:117 JLINK_WriteReg(R15 (PC), 0x200000B6)  returns 0x00 (0000ms, 0699ms total)
T0550 001:117 JLINK_WriteReg(XPSR, 0x01000000)  returns 0x00 (0000ms, 0699ms total)
T0550 001:117 JLINK_WriteReg(MSP, 0x20000800)  returns 0x00 (0000ms, 0699ms total)
T0550 001:117 JLINK_WriteReg(PSP, 0x20000800)  returns 0x00 (0000ms, 0699ms total)
T0550 001:117 JLINK_WriteReg(CFBP, 0x00000000)  returns 0x00 (0000ms, 0699ms total)
T0550 001:117 JLINK_SetBPEx(Addr = 0x20000000, Type = 0xFFFFFFF2)  returns 0x00000009 (0000ms, 0699ms total)
T0550 001:117 JLINK_Go() (0003ms, 0702ms total)
T0550 001:120 JLINK_IsHalted()  returns FALSE (0001ms, 0703ms total)
T0550 001:171 JLINK_IsHalted() -- CPU_ReadMem(2 bytes @ 0x20000000)  returns TRUE (0007ms, 0709ms total)
T0550 001:178 JLINK_ReadReg(R15 (PC))  returns 0x20000000 (0000ms, 0702ms total)
T0550 001:178 JLINK_ClrBPEx(BPHandle = 0x00000009)  returns 0x00 (0000ms, 0702ms total)
T0550 001:178 JLINK_ReadReg(R0)  returns 0x00000000 (0000ms, 0702ms total)
T0550 001:179 JLINK_WriteReg(R0, 0x08002000)  returns 0x00 (0001ms, 0703ms total)
T0550 001:180 JLINK_WriteReg(R1, 0x00000800)  returns 0x00 (0000ms, 0703ms total)
T0550 001:180 JLINK_WriteReg(R2, 0x000000FF)  returns 0x00 (0000ms, 0703ms total)
T0550 001:180 JLINK_WriteReg(R3, 0x00000000)  returns 0x00 (0000ms, 0703ms total)
T0550 001:180 JLINK_WriteReg(R4, 0x00000000)  returns 0x00 (0000ms, 0703ms total)
T0550 001:180 JLINK_WriteReg(R5, 0x00000000)  returns 0x00 (0000ms, 0703ms total)
T0550 001:180 JLINK_WriteReg(R6, 0x00000000)  returns 0x00 (0000ms, 0703ms total)
T0550 001:180 JLINK_WriteReg(R7, 0x00000000)  returns 0x00 (0000ms, 0703ms total)
T0550 001:180 JLINK_WriteReg(R8, 0x00000000)  returns 0x00 (0000ms, 0703ms total)
T0550 001:180 JLINK_WriteReg(R9, 0x20000160)  returns 0x00 (0000ms, 0703ms total)
T0550 001:181 JLINK_WriteReg(R10, 0x00000000)  returns 0x00 (0000ms, 0704ms total)
T0550 001:181 JLINK_WriteReg(R11, 0x00000000)  returns 0x00 (0000ms, 0704ms total)
T0550 001:181 JLINK_WriteReg(R12, 0x00000000)  returns 0x00 (0000ms, 0704ms total)
T0550 001:181 JLINK_WriteReg(R13 (SP), 0x20000800)  returns 0x00 (0000ms, 0704ms total)
T0550 001:181 JLINK_WriteReg(R14, 0x20000001)  returns 0x00 (0000ms, 0704ms total)
T0550 001:181 JLINK_WriteReg(R15 (PC), 0x20000020)  returns 0x00 (0000ms, 0704ms total)
T0550 001:181 JLINK_WriteReg(XPSR, 0x01000000)  returns 0x00 (0000ms, 0704ms total)
T0550 001:181 JLINK_WriteReg(MSP, 0x20000800)  returns 0x00 (0000ms, 0704ms total)
T0550 001:181 JLINK_WriteReg(PSP, 0x20000800)  returns 0x00 (0000ms, 0704ms total)
T0550 001:181 JLINK_WriteReg(CFBP, 0x00000000)  returns 0x00 (0000ms, 0704ms total)
T0550 001:181 JLINK_SetBPEx(Addr = 0x20000000, Type = 0xFFFFFFF2)  returns 0x0000000A (0001ms, 0705ms total)
T0550 001:182 JLINK_Go() (0002ms, 0707ms total)
T0550 001:184 JLINK_IsHalted() -- CPU_ReadMem(2 bytes @ 0x20000000)  returns TRUE (0007ms, 0714ms total)
T0550 001:191 JLINK_ReadReg(R15 (PC))  returns 0x20000000 (0000ms, 0707ms total)
T0550 001:191 JLINK_ClrBPEx(BPHandle = 0x0000000A)  returns 0x00 (0000ms, 0707ms total)
T0550 001:191 JLINK_ReadReg(R0)  returns 0x00000001 (0000ms, 0707ms total)
T0550 001:191 JLINK_WriteReg(R0, 0x08002000)  returns 0x00 (0000ms, 0707ms total)
T0550 001:191 JLINK_WriteReg(R1, 0x00000800)  returns 0x00 (0000ms, 0707ms total)
T0550 001:191 JLINK_WriteReg(R2, 0x000000FF)  returns 0x00 (0001ms, 0708ms total)
T0550 001:192 JLINK_WriteReg(R3, 0x00000000)  returns 0x00 (0000ms, 0708ms total)
T0550 001:192 JLINK_WriteReg(R4, 0x00000000)  returns 0x00 (0000ms, 0708ms total)
T0550 001:192 JLINK_WriteReg(R5, 0x00000000)  returns 0x00 (0000ms, 0708ms total)
T0550 001:192 JLINK_WriteReg(R6, 0x00000000)  returns 0x00 (0000ms, 0708ms total)
T0550 001:192 JLINK_WriteReg(R7, 0x00000000)  returns 0x00 (0000ms, 0708ms total)
T0550 001:192 JLINK_WriteReg(R8, 0x00000000)  returns 0x00 (0000ms, 0708ms total)
T0550 001:192 JLINK_WriteReg(R9, 0x20000160)  returns 0x00 (0000ms, 0708ms total)
T0550 001:192 JLINK_WriteReg(R10, 0x00000000)  returns 0x00 (0000ms, 0708ms total)
T0550 001:192 JLINK_WriteReg(R11, 0x00000000)  returns 0x00 (0000ms, 0708ms total)
T0550 001:192 JLINK_WriteReg(R12, 0x00000000)  returns 0x00 (0000ms, 0708ms total)
T0550 001:193 JLINK_WriteReg(R13 (SP), 0x20000800)  returns 0x00 (0000ms, 0708ms total)
T0550 001:193 JLINK_WriteReg(R14, 0x20000001)  returns 0x00 (0000ms, 0708ms total)
T0550 001:193 JLINK_WriteReg(R15 (PC), 0x200000B6)  returns 0x00 (0000ms, 0708ms total)
T0550 001:193 JLINK_WriteReg(XPSR, 0x01000000)  returns 0x00 (0000ms, 0708ms total)
T0550 001:193 JLINK_WriteReg(MSP, 0x20000800)  returns 0x00 (0000ms, 0708ms total)
T0550 001:194 JLINK_WriteReg(PSP, 0x20000800)  returns 0x00 (0000ms, 0709ms total)
T0550 001:194 JLINK_WriteReg(CFBP, 0x00000000)  returns 0x00 (0000ms, 0709ms total)
T0550 001:194 JLINK_SetBPEx(Addr = 0x20000000, Type = 0xFFFFFFF2)  returns 0x0000000B (0000ms, 0709ms total)
T0550 001:194 JLINK_Go() (0002ms, 0711ms total)
T0550 001:196 JLINK_IsHalted()  returns FALSE (0002ms, 0713ms total)
T0550 001:248 JLINK_IsHalted() -- CPU_ReadMem(2 bytes @ 0x20000000)  returns TRUE (0006ms, 0717ms total)
T0550 001:254 JLINK_ReadReg(R15 (PC))  returns 0x20000000 (0000ms, 0711ms total)
T0550 001:255 JLINK_ClrBPEx(BPHandle = 0x0000000B)  returns 0x00 (0000ms, 0712ms total)
T0550 001:255 JLINK_ReadReg(R0)  returns 0x00000000 (0000ms, 0712ms total)
T0550 001:256 JLINK_WriteReg(R0, 0x08002800)  returns 0x00 (0000ms, 0712ms total)
T0550 001:256 JLINK_WriteReg(R1, 0x00000800)  returns 0x00 (0000ms, 0712ms total)
T0550 001:257 JLINK_WriteReg(R2, 0x000000FF)  returns 0x00 (0000ms, 0713ms total)
T0550 001:257 JLINK_WriteReg(R3, 0x00000000)  returns 0x00 (0000ms, 0713ms total)
T0550 001:257 JLINK_WriteReg(R4, 0x00000000)  returns 0x00 (0000ms, 0713ms total)
T0550 001:257 JLINK_WriteReg(R5, 0x00000000)  returns 0x00 (0000ms, 0713ms total)
T0550 001:257 JLINK_WriteReg(R6, 0x00000000)  returns 0x00 (0000ms, 0713ms total)
T0550 001:257 JLINK_WriteReg(R7, 0x00000000)  returns 0x00 (0000ms, 0713ms total)
T0550 001:257 JLINK_WriteReg(R8, 0x00000000)  returns 0x00 (0000ms, 0713ms total)
T0550 001:257 JLINK_WriteReg(R9, 0x20000160)  returns 0x00 (0000ms, 0713ms total)
T0550 001:257 JLINK_WriteReg(R10, 0x00000000)  returns 0x00 (0000ms, 0713ms total)
T0550 001:257 JLINK_WriteReg(R11, 0x00000000)  returns 0x00 (0000ms, 0713ms total)
T0550 001:258 JLINK_WriteReg(R12, 0x00000000)  returns 0x00 (0000ms, 0713ms total)
T0550 001:258 JLINK_WriteReg(R13 (SP), 0x20000800)  returns 0x00 (0000ms, 0713ms total)
T0550 001:258 JLINK_WriteReg(R14, 0x20000001)  returns 0x00 (0000ms, 0713ms total)
T0550 001:258 JLINK_WriteReg(R15 (PC), 0x20000020)  returns 0x00 (0000ms, 0713ms total)
T0550 001:258 JLINK_WriteReg(XPSR, 0x01000000)  returns 0x00 (0000ms, 0713ms total)
T0550 001:258 JLINK_WriteReg(MSP, 0x20000800)  returns 0x00 (0000ms, 0713ms total)
T0550 001:258 JLINK_WriteReg(PSP, 0x20000800)  returns 0x00 (0000ms, 0713ms total)
T0550 001:258 JLINK_WriteReg(CFBP, 0x00000000)  returns 0x00 (0000ms, 0713ms total)
T0550 001:258 JLINK_SetBPEx(Addr = 0x20000000, Type = 0xFFFFFFF2)  returns 0x0000000C (0000ms, 0713ms total)
T0550 001:258 JLINK_Go() (0003ms, 0716ms total)
T0550 001:261 JLINK_IsHalted() -- CPU_ReadMem(2 bytes @ 0x20000000)  returns TRUE (0006ms, 0722ms total)
T0550 001:267 JLINK_ReadReg(R15 (PC))  returns 0x20000000 (0000ms, 0716ms total)
T0550 001:267 JLINK_ClrBPEx(BPHandle = 0x0000000C)  returns 0x00 (0000ms, 0716ms total)
T0550 001:267 JLINK_ReadReg(R0)  returns 0x00000001 (0000ms, 0716ms total)
T0550 001:267 JLINK_WriteReg(R0, 0x08002800)  returns 0x00 (0000ms, 0716ms total)
T0550 001:267 JLINK_WriteReg(R1, 0x00000800)  returns 0x00 (0001ms, 0717ms total)
T0550 001:268 JLINK_WriteReg(R2, 0x000000FF)  returns 0x00 (0000ms, 0717ms total)
T0550 001:268 JLINK_WriteReg(R3, 0x00000000)  returns 0x00 (0000ms, 0717ms total)
T0550 001:268 JLINK_WriteReg(R4, 0x00000000)  returns 0x00 (0000ms, 0717ms total)
T0550 001:268 JLINK_WriteReg(R5, 0x00000000)  returns 0x00 (0000ms, 0717ms total)
T0550 001:268 JLINK_WriteReg(R6, 0x00000000)  returns 0x00 (0000ms, 0717ms total)
T0550 001:268 JLINK_WriteReg(R7, 0x00000000)  returns 0x00 (0000ms, 0717ms total)
T0550 001:268 JLINK_WriteReg(R8, 0x00000000)  returns 0x00 (0000ms, 0717ms total)
T0550 001:268 JLINK_WriteReg(R9, 0x20000160)  returns 0x00 (0000ms, 0717ms total)
T0550 001:268 JLINK_WriteReg(R10, 0x00000000)  returns 0x00 (0000ms, 0717ms total)
T0550 001:268 JLINK_WriteReg(R11, 0x00000000)  returns 0x00 (0001ms, 0718ms total)
T0550 001:269 JLINK_WriteReg(R12, 0x00000000)  returns 0x00 (0000ms, 0718ms total)
T0550 001:269 JLINK_WriteReg(R13 (SP), 0x20000800)  returns 0x00 (0000ms, 0718ms total)
T0550 001:269 JLINK_WriteReg(R14, 0x20000001)  returns 0x00 (0000ms, 0718ms total)
T0550 001:269 JLINK_WriteReg(R15 (PC), 0x200000B6)  returns 0x00 (0000ms, 0718ms total)
T0550 001:269 JLINK_WriteReg(XPSR, 0x01000000)  returns 0x00 (0000ms, 0718ms total)
T0550 001:269 JLINK_WriteReg(MSP, 0x20000800)  returns 0x00 (0000ms, 0718ms total)
T0550 001:269 JLINK_WriteReg(PSP, 0x20000800)  returns 0x00 (0000ms, 0718ms total)
T0550 001:269 JLINK_WriteReg(CFBP, 0x00000000)  returns 0x00 (0000ms, 0718ms total)
T0550 001:270 JLINK_SetBPEx(Addr = 0x20000000, Type = 0xFFFFFFF2)  returns 0x0000000D (0000ms, 0719ms total)
T0550 001:270 JLINK_Go() (0002ms, 0721ms total)
T0550 001:272 JLINK_IsHalted()  returns FALSE (0002ms, 0723ms total)
T0550 001:324 JLINK_IsHalted() -- CPU_ReadMem(2 bytes @ 0x20000000)  returns TRUE (0006ms, 0727ms total)
T0550 001:330 JLINK_ReadReg(R15 (PC))  returns 0x20000000 (0000ms, 0721ms total)
T0550 001:330 JLINK_ClrBPEx(BPHandle = 0x0000000D)  returns 0x00 (0000ms, 0721ms total)
T0550 001:330 JLINK_ReadReg(R0)  returns 0x00000000 (0000ms, 0721ms total)
T0550 001:332 JLINK_WriteReg(R0, 0x00000001)  returns 0x00 (0000ms, 0721ms total)
T0550 001:332 JLINK_WriteReg(R1, 0x00000800)  returns 0x00 (0000ms, 0721ms total)
T0550 001:332 JLINK_WriteReg(R2, 0x000000FF)  returns 0x00 (0000ms, 0721ms total)
T0550 001:332 JLINK_WriteReg(R3, 0x00000000)  returns 0x00 (0000ms, 0721ms total)
T0550 001:332 JLINK_WriteReg(R4, 0x00000000)  returns 0x00 (0000ms, 0721ms total)
T0550 001:332 JLINK_WriteReg(R5, 0x00000000)  returns 0x00 (0000ms, 0721ms total)
T0550 001:332 JLINK_WriteReg(R6, 0x00000000)  returns 0x00 (0000ms, 0721ms total)
T0550 001:332 JLINK_WriteReg(R7, 0x00000000)  returns 0x00 (0000ms, 0721ms total)
T0550 001:332 JLINK_WriteReg(R8, 0x00000000)  returns 0x00 (0000ms, 0721ms total)
T0550 001:332 JLINK_WriteReg(R9, 0x20000160)  returns 0x00 (0001ms, 0722ms total)
T0550 001:333 JLINK_WriteReg(R10, 0x00000000)  returns 0x00 (0000ms, 0722ms total)
T0550 001:333 JLINK_WriteReg(R11, 0x00000000)  returns 0x00 (0000ms, 0722ms total)
T0550 001:333 JLINK_WriteReg(R12, 0x00000000)  returns 0x00 (0000ms, 0722ms total)
T0550 001:333 JLINK_WriteReg(R13 (SP), 0x20000800)  returns 0x00 (0000ms, 0722ms total)
T0550 001:333 JLINK_WriteReg(R14, 0x20000001)  returns 0x00 (0000ms, 0722ms total)
T0550 001:333 JLINK_WriteReg(R15 (PC), 0x2000006A)  returns 0x00 (0000ms, 0722ms total)
T0550 001:333 JLINK_WriteReg(XPSR, 0x01000000)  returns 0x00 (0000ms, 0722ms total)
T0550 001:333 JLINK_WriteReg(MSP, 0x20000800)  returns 0x00 (0000ms, 0722ms total)
T0550 001:333 JLINK_WriteReg(PSP, 0x20000800)  returns 0x00 (0000ms, 0722ms total)
T0550 001:334 JLINK_WriteReg(CFBP, 0x00000000)  returns 0x00 (0000ms, 0722ms total)
T0550 001:334 JLINK_SetBPEx(Addr = 0x20000000, Type = 0xFFFFFFF2)  returns 0x0000000E (0000ms, 0722ms total)
T0550 001:334 JLINK_Go() (0003ms, 0725ms total)
T0550 001:337 JLINK_IsHalted() -- CPU_ReadMem(2 bytes @ 0x20000000)  returns TRUE (0006ms, 0731ms total)
T0550 001:343 JLINK_ReadReg(R15 (PC))  returns 0x20000000 (0000ms, 0725ms total)
T0550 001:343 JLINK_ClrBPEx(BPHandle = 0x0000000E)  returns 0x00 (0000ms, 0725ms total)
T0550 001:343 JLINK_ReadReg(R0)  returns 0x00000000 (0000ms, 0725ms total)
T0550 001:405 JLINK_WriteMem(0x20000000, 0x0164 Bytes, ...) -- Data:  00 BE 0A E0 0D 78 2D 06 68 40 08 24 40 00 00 D3 ... -- CPU_WriteMem(356 bytes @ 0x20000000)  returns 0x164 (0004ms, 0730ms total)
T0550 001:409 JLINK_ReadMem (0x20000000, 0x0164 Bytes, ...) -- CPU_ReadMem(384 bytes @ 0x20000000) -- Updating C cache (384 bytes @ 0x20000000) -- Read from C cache (356 bytes @ 0x20000000) -- Data:  00 BE 0A E0 0D 78 2D 06 68 40 08 24 40 00 00 D3 ...  returns 0x00 (0003ms, 0733ms total)
T0550 001:412 JLINK_WriteReg(R0, 0x08000000)  returns 0x00 (0001ms, 0734ms total)
T0550 001:413 JLINK_WriteReg(R1, 0x007A1200)  returns 0x00 (0000ms, 0734ms total)
T0550 001:413 JLINK_WriteReg(R2, 0x00000002)  returns 0x00 (0000ms, 0734ms total)
T0550 001:413 JLINK_WriteReg(R3, 0x00000000)  returns 0x00 (0000ms, 0734ms total)
T0550 001:413 JLINK_WriteReg(R4, 0x00000000)  returns 0x00 (0000ms, 0734ms total)
T0550 001:413 JLINK_WriteReg(R5, 0x00000000)  returns 0x00 (0000ms, 0734ms total)
T0550 001:413 JLINK_WriteReg(R6, 0x00000000)  returns 0x00 (0000ms, 0734ms total)
T0550 001:413 JLINK_WriteReg(R7, 0x00000000)  returns 0x00 (0000ms, 0734ms total)
T0550 001:413 JLINK_WriteReg(R8, 0x00000000)  returns 0x00 (0001ms, 0735ms total)
T0550 001:414 JLINK_WriteReg(R9, 0x20000160)  returns 0x00 (0000ms, 0735ms total)
T0550 001:414 JLINK_WriteReg(R10, 0x00000000)  returns 0x00 (0000ms, 0735ms total)
T0550 001:414 JLINK_WriteReg(R11, 0x00000000)  returns 0x00 (0000ms, 0735ms total)
T0550 001:414 JLINK_WriteReg(R12, 0x00000000)  returns 0x00 (0000ms, 0735ms total)
T0550 001:414 JLINK_WriteReg(R13 (SP), 0x20000800)  returns 0x00 (0000ms, 0735ms total)
T0550 001:414 JLINK_WriteReg(R14, 0x20000001)  returns 0x00 (0000ms, 0735ms total)
T0550 001:414 JLINK_WriteReg(R15 (PC), 0x20000038)  returns 0x00 (0000ms, 0735ms total)
T0550 001:414 JLINK_WriteReg(XPSR, 0x01000000)  returns 0x00 (0000ms, 0735ms total)
T0550 001:414 JLINK_WriteReg(MSP, 0x20000800)  returns 0x00 (0000ms, 0735ms total)
T0550 001:414 JLINK_WriteReg(PSP, 0x20000800)  returns 0x00 (0001ms, 0736ms total)
T0550 001:415 JLINK_WriteReg(CFBP, 0x00000000)  returns 0x00 (0000ms, 0736ms total)
T0550 001:415 JLINK_SetBPEx(Addr = 0x20000000, Type = 0xFFFFFFF2) -- CPU_ReadMem(2 bytes @ 0x20000000)  returns 0x0000000F (0001ms, 0737ms total)
T0550 001:416 JLINK_Go() -- CPU_WriteMem(2 bytes @ 0x20000000) (0004ms, 0741ms total)
T0550 001:420 JLINK_IsHalted() -- CPU_ReadMem(2 bytes @ 0x20000000)  returns TRUE (0006ms, 0747ms total)
T0550 001:426 JLINK_ReadReg(R15 (PC))  returns 0x20000000 (0000ms, 0741ms total)
T0550 001:426 JLINK_ClrBPEx(BPHandle = 0x0000000F)  returns 0x00 (0000ms, 0741ms total)
T0550 001:426 JLINK_ReadReg(R0)  returns 0x00000000 (0000ms, 0741ms total)
T0550 001:427 JLINK_WriteMem(0x20000164, 0x0400 Bytes, ...) -- Data:  80 04 00 20 C1 01 00 08 E9 2B 00 08 EB 2B 00 08 ... -- CPU_WriteMem(1024 bytes @ 0x20000164)  returns 0x400 (0008ms, 0749ms total)
T0550 001:435 JLINK_ReadMem (0x20000164, 0x0400 Bytes, ...) -- CPU_ReadMem(1088 bytes @ 0x20000140) -- Updating C cache (1088 bytes @ 0x20000140) -- Read from C cache (1024 bytes @ 0x20000164) -- Data:  80 04 00 20 C1 01 00 08 E9 2B 00 08 EB 2B 00 08 ...  returns 0x00 (0007ms, 0756ms total)
T0550 001:442 JLINK_WriteReg(R0, 0x08000000)  returns 0x00 (0000ms, 0756ms total)
T0550 001:442 JLINK_WriteReg(R1, 0x00000400)  returns 0x00 (0001ms, 0757ms total)
T0550 001:443 JLINK_WriteReg(R2, 0x20000164)  returns 0x00 (0000ms, 0757ms total)
T0550 001:443 JLINK_WriteReg(R3, 0x00000000)  returns 0x00 (0000ms, 0757ms total)
T0550 001:443 JLINK_WriteReg(R4, 0x00000000)  returns 0x00 (0000ms, 0757ms total)
T0550 001:443 JLINK_WriteReg(R5, 0x00000000)  returns 0x00 (0000ms, 0757ms total)
T0550 001:443 JLINK_WriteReg(R6, 0x00000000)  returns 0x00 (0000ms, 0757ms total)
T0550 001:443 JLINK_WriteReg(R7, 0x00000000)  returns 0x00 (0000ms, 0757ms total)
T0550 001:443 JLINK_WriteReg(R8, 0x00000000)  returns 0x00 (0000ms, 0757ms total)
T0550 001:443 JLINK_WriteReg(R9, 0x20000160)  returns 0x00 (0000ms, 0757ms total)
T0550 001:443 JLINK_WriteReg(R10, 0x00000000)  returns 0x00 (0001ms, 0758ms total)
T0550 001:444 JLINK_WriteReg(R11, 0x00000000)  returns 0x00 (0000ms, 0758ms total)
T0550 001:444 JLINK_WriteReg(R12, 0x00000000)  returns 0x00 (0000ms, 0758ms total)
T0550 001:444 JLINK_WriteReg(R13 (SP), 0x20000800)  returns 0x00 (0000ms, 0758ms total)
T0550 001:444 JLINK_WriteReg(R14, 0x20000001)  returns 0x00 (0000ms, 0758ms total)
T0550 001:444 JLINK_WriteReg(R15 (PC), 0x200000F4)  returns 0x00 (0000ms, 0758ms total)
T0550 001:444 JLINK_WriteReg(XPSR, 0x01000000)  returns 0x00 (0000ms, 0758ms total)
T0550 001:444 JLINK_WriteReg(MSP, 0x20000800)  returns 0x00 (0000ms, 0758ms total)
T0550 001:444 JLINK_WriteReg(PSP, 0x20000800)  returns 0x00 (0000ms, 0758ms total)
T0550 001:444 JLINK_WriteReg(CFBP, 0x00000000)  returns 0x00 (0000ms, 0758ms total)
T0550 001:444 JLINK_SetBPEx(Addr = 0x20000000, Type = 0xFFFFFFF2)  returns 0x00000010 (0001ms, 0759ms total)
T0550 001:445 JLINK_Go() (0002ms, 0761ms total)
T0550 001:447 JLINK_IsHalted()  returns FALSE (0001ms, 0762ms total)
T0550 001:498 JLINK_IsHalted() -- CPU_ReadMem(2 bytes @ 0x20000000)  returns TRUE (0007ms, 0768ms total)
T0550 001:505 JLINK_ReadReg(R15 (PC))  returns 0x20000000 (0000ms, 0761ms total)
T0550 001:505 JLINK_ClrBPEx(BPHandle = 0x00000010)  returns 0x00 (0000ms, 0761ms total)
T0550 001:505 JLINK_ReadReg(R0)  returns 0x00000000 (0000ms, 0761ms total)
T0550 001:506 JLINK_WriteMem(0x20000164, 0x0400 Bytes, ...) -- Data:  F0 BD 21 B1 82 68 42 F4 80 12 82 60 03 E0 82 68 ... -- CPU_WriteMem(1024 bytes @ 0x20000164)  returns 0x400 (0008ms, 0769ms total)
T0550 001:514 JLINK_ReadMem (0x20000164, 0x0400 Bytes, ...) -- CPU_ReadMem(1088 bytes @ 0x20000140) -- Updating C cache (1088 bytes @ 0x20000140) -- Read from C cache (1024 bytes @ 0x20000164) -- Data:  F0 BD 21 B1 82 68 42 F4 80 12 82 60 03 E0 82 68 ...  returns 0x00 (0008ms, 0777ms total)
T0550 001:522 JLINK_WriteReg(R0, 0x08000400)  returns 0x00 (0000ms, 0777ms total)
T0550 001:522 JLINK_WriteReg(R1, 0x00000400)  returns 0x00 (0000ms, 0777ms total)
T0550 001:522 JLINK_WriteReg(R2, 0x20000164)  returns 0x00 (0000ms, 0777ms total)
T0550 001:522 JLINK_WriteReg(R3, 0x00000000)  returns 0x00 (0000ms, 0777ms total)
T0550 001:522 JLINK_WriteReg(R4, 0x00000000)  returns 0x00 (0000ms, 0777ms total)
T0550 001:522 JLINK_WriteReg(R5, 0x00000000)  returns 0x00 (0000ms, 0777ms total)
T0550 001:522 JLINK_WriteReg(R6, 0x00000000)  returns 0x00 (0000ms, 0777ms total)
T0550 001:522 JLINK_WriteReg(R7, 0x00000000)  returns 0x00 (0001ms, 0778ms total)
T0550 001:523 JLINK_WriteReg(R8, 0x00000000)  returns 0x00 (0000ms, 0778ms total)
T0550 001:523 JLINK_WriteReg(R9, 0x20000160)  returns 0x00 (0000ms, 0778ms total)
T0550 001:523 JLINK_WriteReg(R10, 0x00000000)  returns 0x00 (0000ms, 0778ms total)
T0550 001:523 JLINK_WriteReg(R11, 0x00000000)  returns 0x00 (0000ms, 0778ms total)
T0550 001:523 JLINK_WriteReg(R12, 0x00000000)  returns 0x00 (0000ms, 0778ms total)
T0550 001:523 JLINK_WriteReg(R13 (SP), 0x20000800)  returns 0x00 (0000ms, 0778ms total)
T0550 001:523 JLINK_WriteReg(R14, 0x20000001)  returns 0x00 (0000ms, 0778ms total)
T0550 001:523 JLINK_WriteReg(R15 (PC), 0x200000F4)  returns 0x00 (0000ms, 0778ms total)
T0550 001:523 JLINK_WriteReg(XPSR, 0x01000000)  returns 0x00 (0001ms, 0779ms total)
T0550 001:524 JLINK_WriteReg(MSP, 0x20000800)  returns 0x00 (0000ms, 0779ms total)
T0550 001:524 JLINK_WriteReg(PSP, 0x20000800)  returns 0x00 (0000ms, 0779ms total)
T0550 001:524 JLINK_WriteReg(CFBP, 0x00000000)  returns 0x00 (0000ms, 0779ms total)
T0550 001:524 JLINK_SetBPEx(Addr = 0x20000000, Type = 0xFFFFFFF2)  returns 0x00000011 (0000ms, 0779ms total)
T0550 001:524 JLINK_Go() (0003ms, 0782ms total)
T0550 001:527 JLINK_IsHalted()  returns FALSE (0001ms, 0783ms total)
T0550 001:578 JLINK_IsHalted() -- CPU_ReadMem(2 bytes @ 0x20000000)  returns TRUE (0007ms, 0789ms total)
T0550 001:585 JLINK_ReadReg(R15 (PC))  returns 0x20000000 (0000ms, 0782ms total)
T0550 001:585 JLINK_ClrBPEx(BPHandle = 0x00000011)  returns 0x00 (0000ms, 0782ms total)
T0550 001:585 JLINK_ReadReg(R0)  returns 0x00000000 (0000ms, 0782ms total)
T0550 001:587 JLINK_WriteMem(0x20000164, 0x0400 Bytes, ...) -- Data:  0F D1 28 0C 60 80 0F 20 FF F7 3E FF 06 46 01 2E ... -- CPU_WriteMem(1024 bytes @ 0x20000164)  returns 0x400 (0007ms, 0789ms total)
T0550 001:594 JLINK_ReadMem (0x20000164, 0x0400 Bytes, ...) -- CPU_ReadMem(1088 bytes @ 0x20000140) -- Updating C cache (1088 bytes @ 0x20000140) -- Read from C cache (1024 bytes @ 0x20000164) -- Data:  0F D1 28 0C 60 80 0F 20 FF F7 3E FF 06 46 01 2E ...  returns 0x00 (0008ms, 0797ms total)
T0550 001:602 JLINK_WriteReg(R0, 0x08000800)  returns 0x00 (0000ms, 0797ms total)
T0550 001:602 JLINK_WriteReg(R1, 0x00000400)  returns 0x00 (0000ms, 0797ms total)
T0550 001:602 JLINK_WriteReg(R2, 0x20000164)  returns 0x00 (0000ms, 0797ms total)
T0550 001:602 JLINK_WriteReg(R3, 0x00000000)  returns 0x00 (0000ms, 0797ms total)
T0550 001:602 JLINK_WriteReg(R4, 0x00000000)  returns 0x00 (0000ms, 0797ms total)
T0550 001:602 JLINK_WriteReg(R5, 0x00000000)  returns 0x00 (0001ms, 0798ms total)
T0550 001:603 JLINK_WriteReg(R6, 0x00000000)  returns 0x00 (0000ms, 0798ms total)
T0550 001:603 JLINK_WriteReg(R7, 0x00000000)  returns 0x00 (0000ms, 0798ms total)
T0550 001:603 JLINK_WriteReg(R8, 0x00000000)  returns 0x00 (0000ms, 0798ms total)
T0550 001:603 JLINK_WriteReg(R9, 0x20000160)  returns 0x00 (0000ms, 0798ms total)
T0550 001:603 JLINK_WriteReg(R10, 0x00000000)  returns 0x00 (0000ms, 0798ms total)
T0550 001:603 JLINK_WriteReg(R11, 0x00000000)  returns 0x00 (0000ms, 0798ms total)
T0550 001:603 JLINK_WriteReg(R12, 0x00000000)  returns 0x00 (0000ms, 0798ms total)
T0550 001:603 JLINK_WriteReg(R13 (SP), 0x20000800)  returns 0x00 (0001ms, 0799ms total)
T0550 001:604 JLINK_WriteReg(R14, 0x20000001)  returns 0x00 (0000ms, 0799ms total)
T0550 001:604 JLINK_WriteReg(R15 (PC), 0x200000F4)  returns 0x00 (0000ms, 0799ms total)
T0550 001:604 JLINK_WriteReg(XPSR, 0x01000000)  returns 0x00 (0000ms, 0799ms total)
T0550 001:604 JLINK_WriteReg(MSP, 0x20000800)  returns 0x00 (0000ms, 0799ms total)
T0550 001:604 JLINK_WriteReg(PSP, 0x20000800)  returns 0x00 (0000ms, 0799ms total)
T0550 001:604 JLINK_WriteReg(CFBP, 0x00000000)  returns 0x00 (0000ms, 0799ms total)
T0550 001:604 JLINK_SetBPEx(Addr = 0x20000000, Type = 0xFFFFFFF2)  returns 0x00000012 (0000ms, 0799ms total)
T0550 001:604 JLINK_Go() (0003ms, 0802ms total)
T0550 001:607 JLINK_IsHalted()  returns FALSE (0001ms, 0803ms total)
T0550 001:658 JLINK_IsHalted() -- CPU_ReadMem(2 bytes @ 0x20000000)  returns TRUE (0006ms, 0808ms total)
T0550 001:664 JLINK_ReadReg(R15 (PC))  returns 0x20000000 (0001ms, 0803ms total)
T0550 001:665 JLINK_ClrBPEx(BPHandle = 0x00000012)  returns 0x00 (0000ms, 0803ms total)
T0550 001:665 JLINK_ReadReg(R0)  returns 0x00000000 (0000ms, 0803ms total)
T0550 001:666 JLINK_WriteMem(0x20000164, 0x0400 Bytes, ...) -- Data:  0F 02 91 F8 03 C0 1C F0 10 0F 03 D0 91 F8 02 C0 ... -- CPU_WriteMem(1024 bytes @ 0x20000164)  returns 0x400 (0007ms, 0810ms total)
T0550 001:673 JLINK_ReadMem (0x20000164, 0x0400 Bytes, ...) -- CPU_ReadMem(1088 bytes @ 0x20000140) -- Updating C cache (1088 bytes @ 0x20000140) -- Read from C cache (1024 bytes @ 0x20000164) -- Data:  0F 02 91 F8 03 C0 1C F0 10 0F 03 D0 91 F8 02 C0 ...  returns 0x00 (0008ms, 0818ms total)
T0550 001:681 JLINK_WriteReg(R0, 0x08000C00)  returns 0x00 (0000ms, 0818ms total)
T0550 001:681 JLINK_WriteReg(R1, 0x00000400)  returns 0x00 (0000ms, 0818ms total)
T0550 001:681 JLINK_WriteReg(R2, 0x20000164)  returns 0x00 (0000ms, 0818ms total)
T0550 001:681 JLINK_WriteReg(R3, 0x00000000)  returns 0x00 (0000ms, 0818ms total)
T0550 001:681 JLINK_WriteReg(R4, 0x00000000)  returns 0x00 (0000ms, 0818ms total)
T0550 001:681 JLINK_WriteReg(R5, 0x00000000)  returns 0x00 (0001ms, 0819ms total)
T0550 001:682 JLINK_WriteReg(R6, 0x00000000)  returns 0x00 (0000ms, 0819ms total)
T0550 001:682 JLINK_WriteReg(R7, 0x00000000)  returns 0x00 (0000ms, 0819ms total)
T0550 001:682 JLINK_WriteReg(R8, 0x00000000)  returns 0x00 (0000ms, 0819ms total)
T0550 001:682 JLINK_WriteReg(R9, 0x20000160)  returns 0x00 (0000ms, 0819ms total)
T0550 001:682 JLINK_WriteReg(R10, 0x00000000)  returns 0x00 (0000ms, 0819ms total)
T0550 001:682 JLINK_WriteReg(R11, 0x00000000)  returns 0x00 (0000ms, 0819ms total)
T0550 001:682 JLINK_WriteReg(R12, 0x00000000)  returns 0x00 (0000ms, 0819ms total)
T0550 001:682 JLINK_WriteReg(R13 (SP), 0x20000800)  returns 0x00 (0000ms, 0819ms total)
T0550 001:682 JLINK_WriteReg(R14, 0x20000001)  returns 0x00 (0000ms, 0819ms total)
T0550 001:682 JLINK_WriteReg(R15 (PC), 0x200000F4)  returns 0x00 (0001ms, 0820ms total)
